time	V(in)	V(out)	V(v+)	V(v-)	V(n001)	V(n002)	V(n003)	I(C1)	I(C2)	I(R1)	I(R2)	I(R3)	I(R4)	I(R5)	I(V1)	I(V2)	I(V3)	Ix(U2:In+)	Ix(U2:In-)	Ix(U2:OUT)	Ix(U2:V+)	Ix(U2:V-)
0.000000000000000e+00	0.000000e+00	1.766284e-03	1.500000e+01	-1.500000e+01	8.322129e-04	-1.446448e-04	-1.677880e-04	1.677880e-23	1.910928e-22	-2.892897e-08	-5.785794e-08	-2.892897e-08	8.322128e-07	9.340707e-07	-1.701527e-03	1.700752e-03	-2.892897e-08	5.785794e-08	1.018579e-07	-9.340707e-07	1.701527e-03	-1.700752e-03
6.208595709136713e-09	6.208596e-03	1.906170e-03	1.500000e+01	-1.500000e+01	9.020778e-04	-4.715548e-06	-1.677701e-04	-3.499352e-07	-8.359690e-07	-1.242662e-06	-4.076364e-07	-9.431090e-10	9.020778e-07	1.004092e-06	-1.701143e-03	1.701134e-03	-1.242662e-06	5.770125e-08	1.020146e-07	-1.681234e-07	1.701143e-03	-1.701134e-03
1.241719141827343e-08	1.241719e-02	2.045788e-03	1.500000e+01	-1.500000e+01	9.717969e-04	1.349964e-04	-1.677308e-04	-6.992963e-07	-1.672622e-06	-2.456439e-06	-7.568181e-07	2.699928e-08	9.717970e-07	1.073991e-06	-1.700761e-03	1.701519e-03	-2.456439e-06	5.752172e-08	1.021941e-07	5.986306e-07	1.700761e-03	-1.701519e-03
1.862578712741014e-08	1.862579e-02	2.185137e-03	1.500000e+01	-1.500000e+01	1.041370e-03	2.744910e-04	-1.676701e-04	-1.048084e-06	-2.509958e-06	-3.670259e-06	-1.105403e-06	5.489821e-08	1.041370e-06	1.143767e-06	-1.700380e-03	1.701905e-03	-3.670259e-06	5.731935e-08	1.023965e-07	1.366191e-06	1.700380e-03	-1.701905e-03
2.483438283654685e-08	2.483438e-02	2.324217e-03	1.500000e+01	-1.500000e+01	1.110798e-03	4.137683e-04	-1.675880e-04	-1.396297e-06	-3.347978e-06	-4.884123e-06	-1.453391e-06	8.275366e-08	1.110798e-06	1.213419e-06	-1.700000e-03	1.702294e-03	-4.884123e-06	5.709413e-08	1.026217e-07	2.134559e-06	1.700000e-03	-1.702294e-03
3.104297854568356e-08	3.104298e-02	2.463029e-03	1.500000e+01	-1.500000e+01	1.180080e-03	5.528283e-04	-1.674845e-04	-1.743936e-06	-4.186682e-06	-6.098030e-06	-1.800782e-06	1.105657e-07	1.180080e-06	1.282949e-06	-1.699622e-03	1.702685e-03	-6.098030e-06	5.684607e-08	1.028698e-07	2.903733e-06	1.699622e-03	-1.702685e-03
3.725157425482028e-08	3.725158e-02	2.601571e-03	1.500000e+01	-1.500000e+01	1.249215e-03	6.916709e-04	-1.673596e-04	-2.091001e-06	-5.026070e-06	-7.311981e-06	-2.147576e-06	1.383342e-07	1.249215e-06	1.352356e-06	-1.699245e-03	1.703079e-03	-7.311981e-06	5.657516e-08	1.031407e-07	3.673714e-06	1.699245e-03	-1.703079e-03
4.346016996395698e-08	4.346017e-02	2.739845e-03	1.500000e+01	-1.500000e+01	1.318205e-03	8.302961e-04	-1.672134e-04	-2.437492e-06	-5.866142e-06	-8.525974e-06	-2.493774e-06	1.660592e-07	1.318205e-06	1.421640e-06	-1.698870e-03	1.703474e-03	-8.525974e-06	5.628141e-08	1.034344e-07	4.444502e-06	1.698870e-03	-1.703474e-03
6.042756557642031e-08	6.042757e-02	3.113222e-03	1.500000e+01	-1.500000e+01	1.504563e-03	1.204878e-03	-1.667148e-04	-3.373361e-06	-8.174580e-06	-1.184454e-05	-3.428982e-06	2.409756e-07	1.504563e-06	1.608659e-06	-1.697845e-03	1.704571e-03	-1.184454e-05	5.562067e-08	1.040952e-07	6.565921e-06	1.697845e-03	-1.704571e-03
8.132049280548744e-08	8.132049e-02	3.562629e-03	1.500000e+01	-1.500000e+01	1.728869e-03	1.656361e-03	-1.658654e-04	-4.500740e-06	-1.104599e-05	-1.593283e-05	-4.555566e-06	3.312722e-07	1.728869e-06	1.833759e-06	-1.696588e-03	1.705960e-03	-1.593283e-05	5.482537e-08	1.048905e-07	9.212229e-06	1.696588e-03	-1.705960e-03
1.078179300049916e-07	1.078179e-01	4.112610e-03	1.500000e+01	-1.500000e+01	2.003374e-03	2.209898e-03	-1.644384e-04	-5.881989e-06	-1.474378e-05	-2.112161e-05	-5.935842e-06	4.419796e-07	2.003374e-06	2.109237e-06	-1.694997e-03	1.707791e-03	-2.112161e-05	5.385249e-08	1.058634e-07	1.263455e-05	1.694997e-03	-1.707791e-03
1.436805264064741e-07	1.436805e-01	4.817312e-03	1.500000e+01	-1.500000e+01	2.355102e-03	2.921056e-03	-1.619243e-04	-7.654843e-06	-1.986023e-05	-2.815190e-05	-7.707450e-06	5.842111e-07	2.355102e-06	2.462210e-06	-1.692843e-03	1.710401e-03	-2.815190e-05	5.260728e-08	1.071086e-07	1.739802e-05	1.692843e-03	-1.710401e-03
1.897873906514232e-07	1.897874e-01	5.651261e-03	1.500000e+01	-1.500000e+01	2.771341e-03	3.766183e-03	-1.577701e-04	-9.758746e-06	-2.664112e-05	-3.720424e-05	-9.809884e-06	7.532366e-07	2.771341e-06	2.879920e-06	-1.690078e-03	1.713999e-03	-3.720424e-05	5.113680e-08	1.085791e-07	2.376120e-05	1.690078e-03	-1.713999e-03
2.525401848921117e-07	2.525402e-01	6.653699e-03	1.500000e+01	-1.500000e+01	3.271680e-03	4.789325e-03	-1.505953e-04	-1.230042e-05	-3.624251e-05	-4.955017e-05	-1.234980e-05	9.578649e-07	3.271680e-06	3.382019e-06	-1.686348e-03	1.719368e-03	-4.955017e-05	4.937596e-08	1.103399e-07	3.286049e-05	1.686347e-03	-1.719367e-03
3.390386844179817e-07	3.390387e-01	7.799097e-03	1.500000e+01	-1.500000e+01	3.843379e-03	5.974235e-03	-1.382463e-04	-1.523382e-05	-5.013684e-05	-6.661289e-05	-1.528120e-05	1.194847e-06	3.843380e-06	3.955718e-06	-1.681347e-03	1.727688e-03	-6.661289e-05	4.737770e-08	1.123382e-07	4.618113e-05	1.681346e-03	-1.727687e-03
4.634127596668095e-07	4.634128e-01	9.065491e-03	1.500000e+01	-1.500000e+01	4.475485e-03	7.318090e-03	-1.168750e-04	-1.854223e-05	-7.116789e-05	-9.121894e-05	-1.858741e-05	1.463618e-06	4.475485e-06	4.590006e-06	-1.674555e-03	1.741292e-03	-9.121893e-05	4.519401e-08	1.145218e-07	6.657788e-05	1.674554e-03	-1.741292e-03
5.893379550057092e-07	5.893379e-01	9.929052e-03	1.500000e+01	-1.500000e+01	4.906537e-03	8.288919e-03	-9.175041e-05	-2.090793e-05	-9.360036e-05	-1.162098e-04	-2.095167e-05	1.657784e-06	4.906538e-06	5.022514e-06	-1.668378e-03	1.757116e-03	-1.162098e-04	4.373955e-08	1.159762e-07	8.857785e-05	1.668378e-03	-1.757115e-03
7.749930135783348e-07	7.749930e-01	1.059597e-02	1.500000e+01	-1.500000e+01	5.239471e-03	9.169263e-03	-5.048067e-05	-2.300594e-05	-1.282824e-04	-1.531648e-04	-2.304936e-05	1.833852e-06	5.239471e-06	5.356500e-06	-1.660679e-03	1.783765e-03	-1.531648e-04	4.268732e-08	1.170282e-07	1.229260e-04	1.660678e-03	-1.783763e-03
1.000000000000000e-06	1.000000e+00	1.088750e-02	1.500000e+01	-1.500000e+01	5.385063e-03	9.778934e-03	2.477302e-06	-2.439880e-05	-1.716473e-04	-1.980442e-04	-2.444114e-05	1.955787e-06	5.385063e-06	5.502440e-06	-1.652817e-03	1.819122e-03	-1.980442e-04	4.233873e-08	1.173771e-07	1.661448e-04	1.652817e-03	-1.819122e-03
1.049753068437255e-06	1.000000e+00	9.923874e-03	1.500000e+01	-1.500000e+01	4.904090e-03	8.901747e-03	1.371541e-05	-2.217605e-05	-1.742192e-04	-1.982197e-04	-2.222008e-05	1.780349e-06	4.904090e-06	5.019784e-06	-1.652391e-03	1.821750e-03	-1.982197e-04	4.402207e-08	1.156938e-07	1.691994e-04	1.652391e-03	-1.821750e-03
1.099506136874511e-06	1.000000e+00	9.034565e-03	1.500000e+01	-1.500000e+01	4.460219e-03	8.099837e-03	2.412712e-05	-2.014367e-05	-1.765708e-04	-1.983800e-04	-2.018928e-05	1.619968e-06	4.460219e-06	4.574347e-06	-1.652005e-03	1.824161e-03	-1.983800e-04	4.558782e-08	1.141280e-07	1.719965e-04	1.652005e-03	-1.824161e-03
1.149259205311766e-06	1.000000e+00	8.219577e-03	1.500000e+01	-1.500000e+01	4.053449e-03	7.373204e-03	3.371243e-05	-1.830165e-05	-1.787020e-04	-1.985254e-04	-1.834873e-05	1.474641e-06	4.053449e-06	4.166129e-06	-1.651658e-03	1.826354e-03	-1.985254e-04	4.703595e-08	1.126799e-07	1.745359e-04	1.651658e-03	-1.826354e-03
1.199012273749021e-06	1.000000e+00	7.478910e-03	1.500000e+01	-1.500000e+01	3.683780e-03	6.721847e-03	4.247136e-05	-1.665000e-05	-1.806129e-04	-1.986556e-04	-1.669844e-05	1.344369e-06	3.683780e-06	3.795129e-06	-1.651351e-03	1.828328e-03	-1.986556e-04	4.836648e-08	1.113493e-07	1.768178e-04	1.651351e-03	-1.828328e-03
1.248765342186277e-06	1.000000e+00	6.812562e-03	1.500000e+01	-1.500000e+01	3.351213e-03	6.145767e-03	5.040389e-05	-1.518871e-05	-1.823034e-04	-1.987708e-04	-1.523841e-05	1.229153e-06	3.351213e-06	3.461349e-06	-1.651083e-03	1.830085e-03	-1.987708e-04	4.957941e-08	1.101364e-07	1.788421e-04	1.651083e-03	-1.830085e-03
1.298518410623532e-06	1.000000e+00	6.220536e-03	1.500000e+01	-1.500000e+01	3.055747e-03	5.644962e-03	5.751002e-05	-1.391779e-05	-1.837736e-04	-1.988710e-04	-1.396863e-05	1.128993e-06	3.055747e-06	3.164788e-06	-1.650855e-03	1.831624e-03	-1.988710e-04	5.067474e-08	1.090410e-07	1.806088e-04	1.650855e-03	-1.831623e-03
1.348271479060787e-06	1.000000e+00	5.702829e-03	1.500000e+01	-1.500000e+01	2.797383e-03	5.219435e-03	6.378977e-05	-1.283723e-05	-1.850234e-04	-1.989561e-04	-1.288911e-05	1.043887e-06	2.797383e-06	2.905446e-06	-1.650667e-03	1.832944e-03	-1.989561e-04	5.165246e-08	1.080633e-07	1.821180e-04	1.650666e-03	-1.832944e-03
1.486605065339988e-06	1.000000e+00	4.579907e-03	1.500000e+01	-1.500000e+01	2.236952e-03	4.354624e-03	7.967768e-05	-1.063325e-05	-1.875712e-04	-1.991291e-04	-1.068737e-05	8.709249e-07	2.236952e-06	2.342955e-06	-1.650276e-03	1.835664e-03	-1.991291e-04	5.371355e-08	1.060021e-07	1.852284e-04	1.650275e-03	-1.835662e-03
1.628824908103376e-06	1.000000e+00	3.751453e-03	1.500000e+01	-1.500000e+01	1.823490e-03	3.794068e-03	9.381839e-05	-9.195009e-06	-1.892322e-04	-1.992412e-04	-9.250624e-06	7.588137e-07	1.823490e-06	1.927963e-06	-1.650019e-03	1.837482e-03	-1.992412e-04	5.524340e-08	1.044723e-07	1.873043e-04	1.650018e-03	-1.837481e-03
1.749069275971996e-06	1.000000e+00	3.269677e-03	1.500000e+01	-1.500000e+01	1.583052e-03	3.540235e-03	1.045266e-04	-8.532935e-06	-1.899949e-04	-1.992920e-04	-8.589271e-06	7.080470e-07	1.583052e-06	1.686626e-06	-1.649896e-03	1.838364e-03	-1.992920e-04	5.614218e-08	1.035736e-07	1.883083e-04	1.649895e-03	-1.838363e-03
1.868961989449665e-06	1.000000e+00	2.940423e-03	1.500000e+01	-1.500000e+01	1.418737e-03	3.438967e-03	1.145854e-04	-8.254115e-06	-1.903135e-04	-1.993122e-04	-8.310953e-06	6.877934e-07	1.418737e-06	1.521686e-06	-1.649837e-03	1.838789e-03	-1.993122e-04	5.676629e-08	1.029495e-07	1.887919e-04	1.649837e-03	-1.838788e-03
2.004213876127537e-06	1.000000e+00	2.683417e-03	1.500000e+01	-1.500000e+01	1.290483e-03	3.439390e-03	1.257228e-04	-8.226867e-06	-1.903401e-04	-1.993121e-04	-8.284169e-06	6.878781e-07	1.290483e-06	1.392934e-06	-1.649818e-03	1.838925e-03	-1.993121e-04	5.726523e-08	1.024506e-07	1.889472e-04	1.649818e-03	-1.838925e-03
2.127703040938264e-06	1.000000e+00	2.522892e-03	1.500000e+01	-1.500000e+01	1.210382e-03	3.513804e-03	1.359756e-04	-8.386963e-06	-1.901499e-04	-1.992972e-04	-8.444571e-06	7.027608e-07	1.210382e-06	1.312510e-06	-1.649832e-03	1.838829e-03	-1.992972e-04	5.758866e-08	1.021272e-07	1.888374e-04	1.649831e-03	-1.838829e-03
2.246117419525870e-06	1.000000e+00	2.420041e-03	1.500000e+01	-1.500000e+01	1.159067e-03	3.635924e-03	1.460713e-04	-8.666816e-06	-1.898210e-04	-1.992728e-04	-8.724633e-06	7.271849e-07	1.159067e-06	1.260974e-06	-1.649865e-03	1.838585e-03	-1.992728e-04	5.780852e-08	1.019073e-07	1.885600e-04	1.649865e-03	-1.838585e-03
2.366354692016822e-06	1.000000e+00	2.352225e-03	1.500000e+01	-1.500000e+01	1.125238e-03	3.796051e-03	1.567414e-04	-9.040304e-06	-1.893833e-04	-1.992408e-04	-9.098275e-06	7.592103e-07	1.125238e-06	1.226986e-06	-1.649914e-03	1.838230e-03	-1.992408e-04	5.796785e-08	1.017480e-07	1.881563e-04	1.649914e-03	-1.838230e-03
2.509273037715573e-06	1.000000e+00	2.304141e-03	1.500000e+01	-1.500000e+01	1.101264e-03	4.018141e-03	1.700807e-04	-9.562048e-06	-1.887726e-04	-1.991964e-04	-9.620152e-06	8.036283e-07	1.101264e-06	1.202878e-06	-1.649986e-03	1.837715e-03	-1.991964e-04	5.810149e-08	1.016144e-07	1.875697e-04	1.649986e-03	-1.837715e-03
2.665506960874133e-06	1.000000e+00	2.278989e-03	1.500000e+01	-1.500000e+01	1.088738e-03	4.287260e-03	1.855810e-04	-1.019599e-05	-1.880309e-04	-1.991426e-04	-1.025420e-05	8.574519e-07	1.088738e-06	1.190252e-06	-1.650075e-03	1.837075e-03	-1.991426e-04	5.820189e-08	1.015140e-07	1.868407e-04	1.650075e-03	-1.837075e-03
2.849372970306165e-06	1.000000e+00	2.274393e-03	1.500000e+01	-1.500000e+01	1.086479e-03	4.627411e-03	2.051631e-04	-1.099734e-05	-1.870934e-04	-1.990745e-04	-1.105562e-05	9.254823e-07	1.086479e-06	1.187914e-06	-1.650190e-03	1.836256e-03	-1.990745e-04	5.828018e-08	1.014357e-07	1.859055e-04	1.650190e-03	-1.836256e-03
3.054903052914953e-06	1.000000e+00	2.290171e-03	1.500000e+01	-1.500000e+01	1.094396e-03	5.026414e-03	2.288836e-04	-1.193549e-05	-1.859956e-04	-1.989947e-04	-1.199383e-05	1.005283e-06	1.094396e-06	1.195775e-06	-1.650328e-03	1.835287e-03	-1.989947e-04	5.833687e-08	1.013790e-07	1.847998e-04	1.650328e-03	-1.835287e-03
3.303857855820650e-06	1.000000e+00	2.328457e-03	1.500000e+01	-1.500000e+01	1.113561e-03	5.525740e-03	2.603111e-04	-1.310519e-05	-1.846261e-04	-1.988948e-04	-1.316357e-05	1.105148e-06	1.113561e-06	1.214896e-06	-1.650502e-03	1.834073e-03	-1.988948e-04	5.838092e-08	1.013349e-07	1.834112e-04	1.650502e-03	-1.834073e-03
3.597463453790886e-06	1.000000e+00	2.391206e-03	1.500000e+01	-1.500000e+01	1.144953e-03	6.127629e-03	3.012908e-04	-1.450743e-05	-1.829831e-04	-1.987745e-04	-1.456585e-05	1.225526e-06	1.144953e-06	1.246253e-06	-1.650714e-03	1.832611e-03	-1.987745e-04	5.841543e-08	1.013004e-07	1.817368e-04	1.650714e-03	-1.832611e-03
3.972739333572732e-06	1.000000e+00	2.490877e-03	1.500000e+01	-1.500000e+01	1.194804e-03	6.909019e-03	3.599729e-04	-1.631417e-05	-1.808638e-04	-1.986182e-04	-1.637261e-05	1.381804e-06	1.194804e-06	1.296073e-06	-1.650993e-03	1.830721e-03	-1.986182e-04	5.844728e-08	1.012686e-07	1.795677e-04	1.650993e-03	-1.830721e-03
4.454256834772875e-06	1.000000e+00	2.644365e-03	1.500000e+01	-1.500000e+01	1.271565e-03	7.924592e-03	4.460233e-04	-1.863794e-05	-1.781337e-04	-1.984151e-04	-1.869642e-05	1.584918e-06	1.271565e-06	1.372800e-06	-1.651361e-03	1.828282e-03	-1.984151e-04	5.848084e-08	1.012350e-07	1.767609e-04	1.651361e-03	-1.828282e-03
5.156600354551364e-06	1.000000e+00	2.915292e-03	1.500000e+01	-1.500000e+01	1.407051e-03	9.426600e-03	5.939336e-04	-2.202314e-05	-1.741477e-04	-1.981147e-04	-2.208167e-05	1.885320e-06	1.407051e-06	1.508241e-06	-1.651918e-03	1.824717e-03	-1.981147e-04	5.852577e-08	1.011901e-07	1.726395e-04	1.651918e-03	-1.824717e-03
6.243334386630855e-06	1.000000e+00	3.449380e-03	1.500000e+01	-1.500000e+01	1.674129e-03	1.179821e-02	8.797837e-04	-2.723746e-05	-1.679847e-04	-1.976404e-04	-2.729606e-05	2.359641e-06	1.674129e-06	1.775251e-06	-1.652830e-03	1.819199e-03	-1.976404e-04	5.859367e-08	1.011222e-07	1.662094e-04	1.652830e-03	-1.819199e-03
8.342596000353310e-06	1.000000e+00	4.885043e-03	1.500000e+01	-1.500000e+01	2.392025e-03	1.654332e-02	1.633749e-03	-3.721516e-05	-1.561088e-04	-1.966913e-04	-3.727393e-05	3.308664e-06	2.392025e-06	2.493017e-06	-1.654794e-03	1.808569e-03	-1.966913e-04	5.872411e-08	1.009917e-07	1.536158e-04	1.654794e-03	-1.808569e-03
1.254111922779822e-05	1.000000e+00	9.300902e-03	1.500000e+01	-1.500000e+01	4.600085e-03	2.664697e-02	3.913392e-03	-5.677482e-05	-1.325074e-04	-1.946706e-04	-5.683393e-05	5.329393e-06	4.600085e-06	4.700818e-06	-1.659738e-03	1.787704e-03	-1.946706e-04	5.898298e-08	1.007328e-07	1.278066e-04	1.659737e-03	-1.787703e-03
2.093816568268804e-05	1.000000e+00	2.279618e-02	1.500000e+01	-1.500000e+01	1.134797e-02	4.866011e-02	1.080022e-02	-9.459018e-05	-8.588630e-05	-1.902680e-04	-9.464973e-05	9.732022e-06	1.134797e-05	1.144820e-05	-1.673926e-03	1.748524e-03	-1.902680e-04	5.948550e-08	1.002304e-07	7.443811e-05	1.673925e-03	-1.748523e-03
3.070379068268805e-05	1.000000e+00	4.536202e-02	1.500000e+01	-1.500000e+01	2.263116e-02	7.683477e-02	2.222910e-02	-1.364540e-04	-3.275213e-05	-1.846330e-04	-1.365142e-04	1.536695e-05	2.263116e-05	2.273086e-05	-1.699360e-03	1.709540e-03	-1.846331e-04	6.001329e-08	9.970255e-08	1.002131e-05	1.699353e-03	-1.709534e-03
4.046941568268805e-05	1.000000e+00	7.560781e-02	1.500000e+01	-1.500000e+01	3.775427e-02	1.077603e-01	3.746938e-02	-1.756672e-04	1.883182e-05	-1.784480e-04	-1.757272e-04	2.155205e-05	3.775427e-05	3.785354e-05	-1.737074e-03	1.680548e-03	-1.784479e-04	6.043948e-08	9.927658e-08	-5.668547e-05	1.737053e-03	-1.680528e-03
5.023504068268805e-05	1.000000e+00	1.132746e-01	1.500000e+01	-1.500000e+01	5.658783e-02	1.411675e-01	5.639242e-02	-2.118782e-04	6.840624e-05	-1.717665e-04	-2.119377e-04	2.823350e-05	5.658783e-05	5.668677e-05	-1.786667e-03	1.661733e-03	-1.717664e-04	6.076689e-08	9.894949e-08	-1.250934e-04	1.786642e-03	-1.661710e-03
6.000066568268805e-05	1.000000e+00	1.577229e-01	1.500000e+01	-1.500000e+01	7.881212e-02	1.766354e-01	7.869108e-02	-2.448004e-04	1.155157e-04	-1.646729e-04	-2.448607e-04	3.532707e-05	7.881212e-05	7.891079e-05	-1.844627e-03	1.650360e-03	-1.646729e-04	6.104007e-08	9.867617e-08	-1.944267e-04	1.844617e-03	-1.650351e-03
6.976629068268805e-05	1.000000e+00	2.082730e-01	1.500000e+01	-1.500000e+01	1.040873e-01	2.137436e-01	1.040335e-01	-2.742140e-04	1.597727e-04	-1.572513e-04	-2.742753e-04	4.274873e-05	1.040873e-04	1.041857e-04	-1.907239e-03	1.643440e-03	-1.572513e-04	6.128745e-08	9.842861e-08	-2.639584e-04	1.907239e-03	-1.643440e-03
7.953191568268805e-05	1.000000e+00	2.642251e-01	1.500000e+01	-1.500000e+01	1.320634e-01	2.520861e-01	1.320703e-01	-2.999780e-04	2.008740e-04	-1.495828e-04	-3.000396e-04	5.041722e-05	1.320635e-04	1.321617e-04	-1.971899e-03	1.639023e-03	-1.495828e-04	6.151005e-08	9.820607e-08	-3.330357e-04	1.971899e-03	-1.639023e-03
8.929754068268804e-05	1.000000e+00	3.248590e-01	1.500000e+01	-1.500000e+01	1.623805e-01	2.912631e-01	1.624401e-01	-3.219962e-04	2.385632e-04	-1.417474e-04	-3.220575e-04	5.825262e-05	1.623805e-04	1.624785e-04	-2.036934e-03	1.636053e-03	-1.417474e-04	6.170428e-08	9.801200e-08	-4.010418e-04	2.036933e-03	-1.636051e-03
9.906316568268804e-05	1.000000e+00	3.894401e-01	1.500000e+01	-1.500000e+01	1.946711e-01	3.308838e-01	1.947744e-01	-3.402124e-04	2.726279e-04	-1.338233e-04	-3.402734e-04	6.617676e-05	1.946711e-04	1.947690e-04	-2.101202e-03	1.633964e-03	-1.338232e-04	6.186549e-08	9.785104e-08	-4.673972e-04	2.101197e-03	-1.633961e-03
1.088287906826880e-04	1.000000e+00	4.572256e-01	1.500000e+01	-1.500000e+01	2.285639e-01	3.705676e-01	2.287010e-01	-3.546055e-04	3.028947e-04	-1.258865e-04	-3.546666e-04	7.411353e-05	2.285639e-04	2.286616e-04	-2.163841e-03	1.632445e-03	-1.258864e-04	6.199062e-08	9.772599e-08	-5.315566e-04	2.163836e-03	-1.632441e-03
1.185944156826880e-04	1.000000e+00	5.274705e-01	1.500000e+01	-1.500000e+01	2.636864e-01	4.099472e-01	2.638471e-01	-3.651888e-04	3.292299e-04	-1.180105e-04	-3.652503e-04	8.198945e-05	2.636865e-04	2.637841e-04	-2.224163e-03	1.631308e-03	-1.180105e-04	6.207873e-08	9.763784e-08	-5.930142e-04	2.224159e-03	-1.631306e-03
1.283600406826880e-04	1.000000e+00	5.994364e-01	1.500000e+01	-1.500000e+01	2.996694e-01	4.486723e-01	2.998432e-01	-3.720112e-04	3.515423e-04	-1.102655e-04	-3.720729e-04	8.973447e-05	2.996694e-04	2.997670e-04	-2.281590e-03	1.630440e-03	-1.102655e-04	6.212867e-08	9.758791e-08	-6.513094e-04	2.281588e-03	-1.630439e-03
1.381256656826880e-04	1.000000e+00	6.723964e-01	1.500000e+01	-1.500000e+01	3.361494e-01	4.864115e-01	3.363258e-01	-3.751527e-04	3.697794e-04	-1.027177e-04	-3.752145e-04	9.728231e-05	3.361494e-04	3.362470e-04	-2.335634e-03	1.629767e-03	-1.027177e-04	6.214049e-08	9.757612e-08	-7.060265e-04	2.335632e-03	-1.629766e-03
1.478912906826881e-04	1.000000e+00	7.456419e-01	1.500000e+01	-1.500000e+01	3.727722e-01	5.228550e-01	3.729408e-01	-3.747237e-04	3.839278e-04	-9.542900e-05	-3.747856e-04	1.045710e-04	3.727722e-04	3.728697e-04	-2.385876e-03	1.629238e-03	-9.542898e-05	6.211484e-08	9.760183e-08	-7.567976e-04	2.385875e-03	-1.629238e-03
1.576569156826881e-04	1.000000e+00	8.184886e-01	1.500000e+01	-1.500000e+01	4.091955e-01	5.577164e-01	4.093463e-01	-3.708632e-04	3.940118e-04	-8.845672e-05	-3.709250e-04	1.115433e-04	4.091955e-04	4.092931e-04	-2.431965e-03	1.628820e-03	-8.845671e-05	6.205286e-08	9.766387e-08	-8.033050e-04	2.431965e-03	-1.628820e-03
1.674225406826881e-04	1.000000e+00	8.902815e-01	1.500000e+01	-1.500000e+01	4.450919e-01	5.907347e-01	4.452155e-01	-3.637362e-04	4.000921e-04	-8.185306e-05	-3.637981e-04	1.181469e-04	4.450919e-04	4.451896e-04	-2.473610e-03	1.628488e-03	-8.185305e-05	6.195607e-08	9.776071e-08	-8.452818e-04	2.473610e-03	-1.628487e-03
